
**** 05/13/24 08:51:14 ****** PSpice 17.2.0 (March 2016) ****** ID# 0 ********

 ** Profile: "SCHEMATIC1-nueva2"  [ C:\SPB_Data\tp3_ep-pspicefiles\schematic1\nueva2.sim ] 


 ****     CIRCUIT DESCRIPTION


******************************************************************************




** Creating circuit file "nueva2.cir" 
** WARNING: THIS AUTOMATICALLY GENERATED FILE MAY BE OVERWRITTEN BY SUBSEQUENT SIMULATIONS

*Libraries: 
* Profile Libraries :
* Local Libraries :
* From [PSPICE NETLIST] section of C:\SPB_Data\cdssetup\OrCAD_PSpice\17.2.0\PSpice.ini file:
.lib "nom.lib" 

*Analysis directives: 
.TRAN  0 40ms 0 10us 
.OPTIONS ADVCONV
.PROBE64 V(alias(*)) I(alias(*)) W(alias(*)) D(alias(*)) NOISE(alias(*)) 
.INC "..\SCHEMATIC1.net" 



**** INCLUDING SCHEMATIC1.net ****
* source TP3_EP
X_X1         N01396 N00748 N00686 MCR5167
X_X2         N00686 N00691 N00849 MCR5167
X_X3         N00760 N01034 N00829 MCR5167
X_X4         N01396 N00720 N00760 MCR5167
X_X5         N01396 N00732 N00772 MCR5167
X_X6         N00772 N04297 N00829 MCR5167
I_I4         N00686 N00748 DC 0Adc AC 0Aac
+PULSE 0 1 {tn4+td} 1u 1u 500u {1/frec}
I_I1         N00829 N00691 DC 0Adc AC 0Aac
+PULSE 0 1 {tn1+td} 1u 1u 500u {1/frec}
I_I2         N00829 N01034 DC 0Adc AC 0Aac
+PULSE 0 1 {tn2+td} 1u 1u 500u {1/frec}
I_I5         N00760 N00720 DC 0Adc AC 0Aac
+PULSE 0 1 {tn5+td} 1u 1u 500u {1/frec}
I_I6         N00772 N00732 DC 0Adc AC 0Aac
+PULSE 0 1 {tn6+td} 1u 1u 500u {1/frec}
R_R1         N01396 N00829  100 TC=0,0 
V_V1         N00686 0 DC 0 AC 0
+SIN 0 {vmax} {frec} 0 0 0
V_V2         N00760 0 DC 0 AC 0
+SIN 0 {vmax} {frec} 0 0 120
V_V3         N00772 0 DC 0 AC 0
+SIN 0 {vmax} {frec} 0 0 240
I_I3         N00829 N04297 DC 0Adc AC 0Aac
+PULSE 0 1 {tn3+td} 1u 1u 500u {1/frec}
.PARAM  tn6=18.33m tn1=1.66m tn3=8.33m tn2=15m alpha=135 frec=50hz td=
+ {alpha*20m/360} vmax=311v tn5=5m tn4=11.66m

**** RESUMING nueva2.cir ****
.END

**** 05/13/24 08:51:14 ****** PSpice 17.2.0 (March 2016) ****** ID# 0 ********

 ** Profile: "SCHEMATIC1-nueva2"  [ C:\SPB_Data\tp3_ep-pspicefiles\schematic1\nueva2.sim ] 


 ****     Diode MODEL PARAMETERS


******************************************************************************




               X_X1.X1.Dgk     X_X1.X1.Dseries X_X1.X1.Delay   X_X1.X1.Dkarev  
          IS  100.000000E-18   10.000000E-15    1.000000E-12  100.000000E-12 
          RS    5                                .01             .01         
         CJO   50.000000E-12                    5.000000E-12    5.000000E-12 


               X_X1.X1.Dakfwd  X_X1.X1.Dbreak  X_X2.X1.Dgk     X_X2.X1.Dseries 
          IS   40.000000E-12   10.000000E-15  100.000000E-18   10.000000E-15 
          BV                  660                                            
         IBV                  100.000000E-09                                 
          RS                     .5             5                            
         CJO    5.000000E-12    5.000000E-12   50.000000E-12                 


               X_X2.X1.Delay   X_X2.X1.Dkarev  X_X2.X1.Dakfwd  X_X2.X1.Dbreak  
          IS    1.000000E-12  100.000000E-12   40.000000E-12   10.000000E-15 
          BV                                                  660            
         IBV                                                  100.000000E-09 
          RS     .01             .01                             .5          
         CJO    5.000000E-12    5.000000E-12    5.000000E-12    5.000000E-12 


               X_X3.X1.Dgk     X_X3.X1.Dseries X_X3.X1.Delay   X_X3.X1.Dkarev  
          IS  100.000000E-18   10.000000E-15    1.000000E-12  100.000000E-12 
          RS    5                                .01             .01         
         CJO   50.000000E-12                    5.000000E-12    5.000000E-12 


               X_X3.X1.Dakfwd  X_X3.X1.Dbreak  X_X4.X1.Dgk     X_X4.X1.Dseries 
          IS   40.000000E-12   10.000000E-15  100.000000E-18   10.000000E-15 
          BV                  660                                            
         IBV                  100.000000E-09                                 
          RS                     .5             5                            
         CJO    5.000000E-12    5.000000E-12   50.000000E-12                 


               X_X4.X1.Delay   X_X4.X1.Dkarev  X_X4.X1.Dakfwd  X_X4.X1.Dbreak  
          IS    1.000000E-12  100.000000E-12   40.000000E-12   10.000000E-15 
          BV                                                  660            
         IBV                                                  100.000000E-09 
          RS     .01             .01                             .5          
         CJO    5.000000E-12    5.000000E-12    5.000000E-12    5.000000E-12 


               X_X5.X1.Dgk     X_X5.X1.Dseries X_X5.X1.Delay   X_X5.X1.Dkarev  
          IS  100.000000E-18   10.000000E-15    1.000000E-12  100.000000E-12 
          RS    5                                .01             .01         
         CJO   50.000000E-12                    5.000000E-12    5.000000E-12 


               X_X5.X1.Dakfwd  X_X5.X1.Dbreak  X_X6.X1.Dgk     X_X6.X1.Dseries 
          IS   40.000000E-12   10.000000E-15  100.000000E-18   10.000000E-15 
          BV                  660                                            
         IBV                  100.000000E-09                                 
          RS                     .5             5                            
         CJO    5.000000E-12    5.000000E-12   50.000000E-12                 


               X_X6.X1.Delay   X_X6.X1.Dkarev  X_X6.X1.Dakfwd  X_X6.X1.Dbreak  
          IS    1.000000E-12  100.000000E-12   40.000000E-12   10.000000E-15 
          BV                                                  660            
         IBV                                                  100.000000E-09 
          RS     .01             .01                             .5          
         CJO    5.000000E-12    5.000000E-12    5.000000E-12    5.000000E-12 


**** 05/13/24 08:51:14 ****** PSpice 17.2.0 (March 2016) ****** ID# 0 ********

 ** Profile: "SCHEMATIC1-nueva2"  [ C:\SPB_Data\tp3_ep-pspicefiles\schematic1\nueva2.sim ] 


 ****     Voltage Controlled Switch MODEL PARAMETERS


******************************************************************************




               X_X1.X1.Vswitch X_X2.X1.Vswitch X_X3.X1.Vswitch X_X4.X1.Vswitch 
         RON     .04             .04             .04             .04         
        ROFF    4.800000E+06    4.800000E+06    4.800000E+06    4.800000E+06 
         VON    5               5               5               5            
        VOFF    1.5             1.5             1.5             1.5          


               X_X5.X1.Vswitch X_X6.X1.Vswitch 
         RON     .04             .04         
        ROFF    4.800000E+06    4.800000E+06 
         VON    5               5            
        VOFF    1.5             1.5          


**** 05/13/24 08:51:14 ****** PSpice 17.2.0 (March 2016) ****** ID# 0 ********

 ** Profile: "SCHEMATIC1-nueva2"  [ C:\SPB_Data\tp3_ep-pspicefiles\schematic1\nueva2.sim ] 


 ****     INITIAL TRANSIENT SOLUTION       TEMPERATURE =   27.000 DEG C


******************************************************************************



 NODE   VOLTAGE     NODE   VOLTAGE     NODE   VOLTAGE     NODE   VOLTAGE


(N00686)    0.0000 (N00691)-47.05E-12 (N00720)  269.3300 (N00732) -269.3300     

(N00748) 46.12E-30 (N00760)  269.3300 (N00772) -269.3300 (N00829)-248.4E-09     

(N00849)-47.05E-12 (N01034)-248.4E-09 (N01396) 245.3E-09 (N04297)-248.4E-09     

(X_X1.X1.Itot) 370.0E-18              (X_X1.X1.prod) 90.74E-24                  

(X_X2.X1.Itot) 70.65E-21              (X_X2.X1.prod) 3.324E-30                  

(X_X3.X1.Itot) 56.03E-06              (X_X3.X1.prod)     .0151                  

(X_X4.X1.Itot)    0.0000              (X_X4.X1.prod)    0.0000                  

(X_X5.X1.Itot) 56.03E-06              (X_X5.X1.prod)     .0151                  

(X_X6.X1.Itot)    0.0000              (X_X6.X1.prod)    0.0000                  

(X_X1.X1.dlay1) 15.48E-21             (X_X1.X1.dlay2)-109.1E-21                 

(X_X1.X1.dvdt0) 245.3E-09             (X_X1.X1.dvdt1)    0.0000                 

(X_X1.X1.dvdt2)    0.0000             (X_X1.X1.gate1) 46.12E-30                 

(X_X1.X1.gate2)    0.0000             (X_X1.X1.gate4)    0.0000                 

(X_X2.X1.dlay1) 15.48E-21             (X_X2.X1.dlay2)-109.1E-21                 

(X_X2.X1.dvdt0) 47.05E-12             (X_X2.X1.dvdt1)-47.05E-12                 

(X_X2.X1.dvdt2)-47.05E-12             (X_X2.X1.gate1)-47.05E-12                 

(X_X2.X1.gate2)-47.05E-12             (X_X2.X1.gate4)    0.0000                 

(X_X3.X1.dlay1) 15.48E-21             (X_X3.X1.dlay2)-109.1E-21                 

(X_X3.X1.dvdt0)  269.3300             (X_X3.X1.dvdt1)-248.4E-09                 

(X_X3.X1.dvdt2)-248.4E-09             (X_X3.X1.gate1)-248.4E-09                 

(X_X3.X1.gate2)-248.4E-09             (X_X3.X1.gate4)    0.0000                 

(X_X4.X1.dlay1) 15.48E-21             (X_X4.X1.dlay2)-109.1E-21                 

(X_X4.X1.dvdt0)    0.0000             (X_X4.X1.dvdt1)  269.3300                 

(X_X4.X1.dvdt2)  269.3300             (X_X4.X1.gate1)  269.3300                 

(X_X4.X1.gate2)  269.3300             (X_X4.X1.gate4)    0.0000                 

(X_X5.X1.dlay1) 15.48E-21             (X_X5.X1.dlay2)-109.1E-21                 

(X_X5.X1.dvdt0)  269.3300             (X_X5.X1.dvdt1) -269.3300                 

(X_X5.X1.dvdt2) -269.3300             (X_X5.X1.gate1) -269.3300                 

(X_X5.X1.gate2) -269.3300             (X_X5.X1.gate4)    0.0000                 

(X_X6.X1.dlay1) 15.48E-21             (X_X6.X1.dlay2)-109.1E-21                 

(X_X6.X1.dvdt0)    0.0000             (X_X6.X1.dvdt1)-248.4E-09                 

(X_X6.X1.dvdt2)-248.4E-09             (X_X6.X1.gate1)-248.4E-09                 

(X_X6.X1.gate2)-248.4E-09             (X_X6.X1.gate4)    0.0000                 

(X_X1.X1.anode0) 239.1E-09            (X_X1.X1.anode2)    0.0000                

(X_X1.X1.break1) 122.6E-09            (X_X1.X1.contot)    0.0000                

(X_X2.X1.anode0)-1.192E-12            (X_X2.X1.anode2)-47.05E-12                

(X_X2.X1.break1)-23.52E-12            (X_X2.X1.contot)    0.0000                

(X_X3.X1.anode0)     .3660            (X_X3.X1.anode2)-248.4E-09                

(X_X3.X1.break1)  269.0700            (X_X3.X1.contot)    0.0000                

(X_X4.X1.anode0)  268.9900            (X_X4.X1.anode2)  269.3300                

(X_X4.X1.break1)  269.0700            (X_X4.X1.contot)    0.0000                

(X_X5.X1.anode0) -268.9700            (X_X5.X1.anode2) -269.3300                

(X_X5.X1.break1)    -.2638            (X_X5.X1.contot)    0.0000                

(X_X6.X1.anode0)    -.3424            (X_X6.X1.anode2)-248.4E-09                

(X_X6.X1.break1)    -.2638            (X_X6.X1.contot)    0.0000                

(X_X1.X1.condvdt)    0.0000           (X_X1.X1.congate)    0.0000               

(X_X1.X1.conmain)    0.0000           (X_X1.X1.control) 43.09E-15               

(X_X2.X1.condvdt)    0.0000           (X_X2.X1.congate)    0.0000               

(X_X2.X1.conmain)    0.0000           (X_X2.X1.control) 43.09E-15               

(X_X3.X1.condvdt)    0.0000           (X_X3.X1.congate)    0.0000               

(X_X3.X1.conmain)    0.0000           (X_X3.X1.control) 43.09E-15               

(X_X4.X1.condvdt)    0.0000           (X_X4.X1.congate)    0.0000               

(X_X4.X1.conmain)    0.0000           (X_X4.X1.control) 43.09E-15               

(X_X5.X1.condvdt)    0.0000           (X_X5.X1.congate)    0.0000               

(X_X5.X1.conmain)    0.0000           (X_X5.X1.control) 43.09E-15               

(X_X6.X1.condvdt)    0.0000           (X_X6.X1.congate)    0.0000               

(X_X6.X1.conmain)    0.0000           (X_X6.X1.control) 43.09E-15           




    VOLTAGE SOURCE CURRENTS
    NAME         CURRENT

    V_V1         1.294E-15
    V_V2        -1.121E-04
    V_V3         1.121E-04
    X_X1.X1.VIak   3.700E-16
    X_X1.X1.VdVdt   0.000E+00
    X_X1.X1.VIgf   0.000E+00
    X_X2.X1.VIak   7.096E-20
    X_X2.X1.VdVdt   0.000E+00
    X_X2.X1.VIgf  -2.483E-19
    X_X3.X1.VIak   5.603E-05
    X_X3.X1.VdVdt   0.000E+00
    X_X3.X1.VIgf   6.617E-24
    X_X4.X1.VIak  -4.034E-11
    X_X4.X1.VdVdt   0.000E+00
    X_X4.X1.VIgf   1.776E-15
    X_X5.X1.VIak   5.603E-05
    X_X5.X1.VdVdt   0.000E+00
    X_X5.X1.VIgf   3.553E-15
    X_X6.X1.VIak  -4.034E-11
    X_X6.X1.VdVdt   0.000E+00
    X_X6.X1.VIgf   7.756E-24

    TOTAL POWER DISSIPATION   6.04E-02  WATTS



          JOB CONCLUDED

**** 05/13/24 08:51:14 ****** PSpice 17.2.0 (March 2016) ****** ID# 0 ********

 ** Profile: "SCHEMATIC1-nueva2"  [ C:\SPB_Data\tp3_ep-pspicefiles\schematic1\nueva2.sim ] 


 ****     JOB STATISTICS SUMMARY


******************************************************************************



  Total job time (using Solver 1)   =        5.00
