
**** 05/18/24 14:02:07 ***** PSpice 23.1.0 (17 April 2024) **** ID# 0 ********

 ** Profile: "SCHEMATIC1-RLE"  [ C:\Users\lucho\OneDrive\Escritorio\ElectronicaPotencia-main\TP3\Simulacion\TP3_EP-PSpiceFiles\SCHEMA


 ****     CIRCUIT DESCRIPTION


******************************************************************************




** Creating circuit file "RLE.cir" 
** WARNING: THIS AUTOMATICALLY GENERATED FILE MAY BE OVERWRITTEN BY SUBSEQUENT SIMULATIONS

*Libraries: 
* Profile Libraries :
* Local Libraries :
* From [PSPICE NETLIST] section of C:\Users\lucho\cdssetup\OrCAD_PSpice\23.1.0\PSpice.ini file:
.lib "nom.lib" 

*Analysis directives: 
.TRAN  0 80ms 40ms 0.01mms 
.OPTIONS ADVCONV
.PROBE64 V(alias(*)) I(alias(*)) W(alias(*)) D(alias(*)) NOISE(alias(*)) 
.INC "..\SCHEMATIC1.net" 



**** INCLUDING SCHEMATIC1.net ****
* source TP3_EP
X_X1         N06786 N07787 N00779 MCR5167
X_X2         N00779 N08106 N00833 MCR5167
X_X3         N00793 N08261 N00833 MCR5167
X_X4         N06786 N07895 N00793 MCR5167
X_X5         N06786 N08438 N00772 MCR5167
X_X6         N00772 N08587 N00833 MCR5167
I_I4         N00779 N07787 DC 0Adc AC 0Aac
+PULSE 0 1 {tn4+td} 1u 1u 500u {1/frec}
I_I1         N00833 N08106 DC 0Adc AC 0Aac
+PULSE 0 1 {tn1+td} 1u 1u 500u {1/frec}
I_I2         N00833 N08261 DC 0Adc AC 0Aac
+PULSE 0 1 {tn2+td} 1u 1u 500u {1/frec}
I_I5         N00793 N07895 DC 0Adc AC 0Aac
+PULSE 0 1 {tn5+td} 1u 1u 500u {1/frec}
I_I6         N00772 N08438 DC 0Adc AC 0Aac
+PULSE 0 1 {tn6+td} 1u 1u 500u {1/frec}
V_V_R         N00779 0 DC 0 AC 0
+SIN 0 {vmax} {frec} 0 0 0
V_V_S         N00793 0 DC 0 AC 0
+SIN 0 {vmax} {frec} 0 0 120
V_V_T         N00772 0 DC 0 AC 0
+SIN 0 {vmax} {frec} 0 0 240
I_I3         N00833 N08587 DC 0Adc AC 0Aac
+PULSE 0 1 {tn3+td} 1u 1u 500u {1/frec}
R_RL         N06786 N00833  10  
.PARAM  tn6=18.33m tn1=1.66m tn3=8.33m tn2=15m val=5mh alpha=135 frec=50
+  vmax=311 td={alpha*20m/360} tn5=5m tn4=11.66m

**** RESUMING RLE.cir ****
.END

**** 05/18/24 14:02:07 ***** PSpice 23.1.0 (17 April 2024) **** ID# 0 ********

 ** Profile: "SCHEMATIC1-RLE"  [ C:\Users\lucho\OneDrive\Escritorio\ElectronicaPotencia-main\TP3\Simulacion\TP3_EP-PSpiceFiles\SCHEMA


 ****     Diode MODEL PARAMETERS


******************************************************************************




               X_X1.X1.Dgk     X_X1.X1.Dseries X_X1.X1.Delay   X_X1.X1.Dkarev  
          IS  100.000000E-18   10.000000E-15    1.000000E-12  100.000000E-12 
          RS    5                                .01             .01         
         CJO   50.000000E-12                    5.000000E-12    5.000000E-12 


               X_X1.X1.Dakfwd  X_X1.X1.Dbreak  X_X2.X1.Dgk     X_X2.X1.Dseries 
          IS   40.000000E-12   10.000000E-15  100.000000E-18   10.000000E-15 
          BV                  660                                            
         IBV                  100.000000E-09                                 
          RS                     .5             5                            
         CJO    5.000000E-12    5.000000E-12   50.000000E-12                 


               X_X2.X1.Delay   X_X2.X1.Dkarev  X_X2.X1.Dakfwd  X_X2.X1.Dbreak  
          IS    1.000000E-12  100.000000E-12   40.000000E-12   10.000000E-15 
          BV                                                  660            
         IBV                                                  100.000000E-09 
          RS     .01             .01                             .5          
         CJO    5.000000E-12    5.000000E-12    5.000000E-12    5.000000E-12 


               X_X3.X1.Dgk     X_X3.X1.Dseries X_X3.X1.Delay   X_X3.X1.Dkarev  
          IS  100.000000E-18   10.000000E-15    1.000000E-12  100.000000E-12 
          RS    5                                .01             .01         
         CJO   50.000000E-12                    5.000000E-12    5.000000E-12 


               X_X3.X1.Dakfwd  X_X3.X1.Dbreak  X_X4.X1.Dgk     X_X4.X1.Dseries 
          IS   40.000000E-12   10.000000E-15  100.000000E-18   10.000000E-15 
          BV                  660                                            
         IBV                  100.000000E-09                                 
          RS                     .5             5                            
         CJO    5.000000E-12    5.000000E-12   50.000000E-12                 


               X_X4.X1.Delay   X_X4.X1.Dkarev  X_X4.X1.Dakfwd  X_X4.X1.Dbreak  
          IS    1.000000E-12  100.000000E-12   40.000000E-12   10.000000E-15 
          BV                                                  660            
         IBV                                                  100.000000E-09 
          RS     .01             .01                             .5          
         CJO    5.000000E-12    5.000000E-12    5.000000E-12    5.000000E-12 


               X_X5.X1.Dgk     X_X5.X1.Dseries X_X5.X1.Delay   X_X5.X1.Dkarev  
          IS  100.000000E-18   10.000000E-15    1.000000E-12  100.000000E-12 
          RS    5                                .01             .01         
         CJO   50.000000E-12                    5.000000E-12    5.000000E-12 


               X_X5.X1.Dakfwd  X_X5.X1.Dbreak  X_X6.X1.Dgk     X_X6.X1.Dseries 
          IS   40.000000E-12   10.000000E-15  100.000000E-18   10.000000E-15 
          BV                  660                                            
         IBV                  100.000000E-09                                 
          RS                     .5             5                            
         CJO    5.000000E-12    5.000000E-12   50.000000E-12                 


               X_X6.X1.Delay   X_X6.X1.Dkarev  X_X6.X1.Dakfwd  X_X6.X1.Dbreak  
          IS    1.000000E-12  100.000000E-12   40.000000E-12   10.000000E-15 
          BV                                                  660            
         IBV                                                  100.000000E-09 
          RS     .01             .01                             .5          
         CJO    5.000000E-12    5.000000E-12    5.000000E-12    5.000000E-12 


**** 05/18/24 14:02:07 ***** PSpice 23.1.0 (17 April 2024) **** ID# 0 ********

 ** Profile: "SCHEMATIC1-RLE"  [ C:\Users\lucho\OneDrive\Escritorio\ElectronicaPotencia-main\TP3\Simulacion\TP3_EP-PSpiceFiles\SCHEMA


 ****     Voltage Controlled Switch MODEL PARAMETERS


******************************************************************************




               X_X1.X1.Vswitch X_X2.X1.Vswitch X_X3.X1.Vswitch X_X4.X1.Vswitch 
         RON     .04             .04             .04             .04         
        ROFF    4.800000E+06    4.800000E+06    4.800000E+06    4.800000E+06 
         VON    5               5               5               5            
        VOFF    1.5             1.5             1.5             1.5          


               X_X5.X1.Vswitch X_X6.X1.Vswitch 
         RON     .04             .04         
        ROFF    4.800000E+06    4.800000E+06 
         VON    5               5            
        VOFF    1.5             1.5          


**** 05/18/24 14:02:07 ***** PSpice 23.1.0 (17 April 2024) **** ID# 0 ********

 ** Profile: "SCHEMATIC1-RLE"  [ C:\Users\lucho\OneDrive\Escritorio\ElectronicaPotencia-main\TP3\Simulacion\TP3_EP-PSpiceFiles\SCHEMA


 ****     INITIAL TRANSIENT SOLUTION       TEMPERATURE =   27.000 DEG C


******************************************************************************



 NODE   VOLTAGE     NODE   VOLTAGE     NODE   VOLTAGE     NODE   VOLTAGE


(N00772) -269.3300 (N00779)    0.0000 (N00793)  269.3300 (N00833)-24.74E-09     

(N06786) 24.63E-09 (N07787) 46.12E-30 (N07895)  269.3300 (N08106)-24.74E-09     

(N08261)-24.74E-09 (N08438) -269.3300 (N08587)-24.74E-09                        

(X_X1.X1.Itot) 37.15E-18              (X_X1.X1.prod) 915.1E-27                  

(X_X2.X1.Itot) 37.31E-18              (X_X2.X1.prod) 922.9E-27                  

(X_X3.X1.Itot) 56.03E-06              (X_X3.X1.prod)     .0151                  

(X_X4.X1.Itot)    0.0000              (X_X4.X1.prod)    0.0000                  

(X_X5.X1.Itot) 56.03E-06              (X_X5.X1.prod)     .0151                  

(X_X6.X1.Itot)    0.0000              (X_X6.X1.prod)    0.0000                  

(X_X1.X1.dlay1) 15.48E-21             (X_X1.X1.dlay2)-109.1E-21                 

(X_X1.X1.dvdt0) 24.63E-09             (X_X1.X1.dvdt1)    0.0000                 

(X_X1.X1.dvdt2)    0.0000             (X_X1.X1.gate1) 46.12E-30                 

(X_X1.X1.gate2)    0.0000             (X_X1.X1.gate4)    0.0000                 

(X_X2.X1.dlay1) 15.48E-21             (X_X2.X1.dlay2)-109.1E-21                 

(X_X2.X1.dvdt0) 24.74E-09             (X_X2.X1.dvdt1)-24.74E-09                 

(X_X2.X1.dvdt2)-24.74E-09             (X_X2.X1.gate1)-24.74E-09                 

(X_X2.X1.gate2)-24.74E-09             (X_X2.X1.gate4)    0.0000                 

(X_X3.X1.dlay1) 15.48E-21             (X_X3.X1.dlay2)-109.1E-21                 

(X_X3.X1.dvdt0)  269.3300             (X_X3.X1.dvdt1)-24.74E-09                 

(X_X3.X1.dvdt2)-24.74E-09             (X_X3.X1.gate1)-24.74E-09                 

(X_X3.X1.gate2)-24.74E-09             (X_X3.X1.gate4)    0.0000                 

(X_X4.X1.dlay1) 15.48E-21             (X_X4.X1.dlay2)-109.1E-21                 

(X_X4.X1.dvdt0)    0.0000             (X_X4.X1.dvdt1)  269.3300                 

(X_X4.X1.dvdt2)  269.3300             (X_X4.X1.gate1)  269.3300                 

(X_X4.X1.gate2)  269.3300             (X_X4.X1.gate4)    0.0000                 

(X_X5.X1.dlay1) 15.48E-21             (X_X5.X1.dlay2)-109.1E-21                 

(X_X5.X1.dvdt0)  269.3300             (X_X5.X1.dvdt1) -269.3300                 

(X_X5.X1.dvdt2) -269.3300             (X_X5.X1.gate1) -269.3300                 

(X_X5.X1.gate2) -269.3300             (X_X5.X1.gate4)    0.0000                 

(X_X6.X1.dlay1) 15.48E-21             (X_X6.X1.dlay2)-109.1E-21                 

(X_X6.X1.dvdt0)    0.0000             (X_X6.X1.dvdt1)-24.74E-09                 

(X_X6.X1.dvdt2)-24.74E-09             (X_X6.X1.gate1)-24.74E-09                 

(X_X6.X1.gate2)-24.74E-09             (X_X6.X1.gate4)    0.0000                 

(X_X1.X1.anode0) 24.01E-09            (X_X1.X1.anode2)    0.0000                

(X_X1.X1.break1) 12.32E-09            (X_X1.X1.contot)    0.0000                

(X_X2.X1.anode0)-626.6E-12            (X_X2.X1.anode2)-24.74E-09                

(X_X2.X1.break1)-12.37E-09            (X_X2.X1.contot)    0.0000                

(X_X3.X1.anode0)     .3660            (X_X3.X1.anode2)-24.74E-09                

(X_X3.X1.break1)  269.0700            (X_X3.X1.contot)    0.0000                

(X_X4.X1.anode0)  268.9900            (X_X4.X1.anode2)  269.3300                

(X_X4.X1.break1)  269.0700            (X_X4.X1.contot)    0.0000                

(X_X5.X1.anode0) -268.9700            (X_X5.X1.anode2) -269.3300                

(X_X5.X1.break1)    -.2638            (X_X5.X1.contot)    0.0000                

(X_X6.X1.anode0)    -.3424            (X_X6.X1.anode2)-24.74E-09                

(X_X6.X1.break1)    -.2638            (X_X6.X1.contot)    0.0000                

(X_X1.X1.condvdt)    0.0000           (X_X1.X1.congate)    0.0000               

(X_X1.X1.conmain)    0.0000           (X_X1.X1.control) 43.09E-15               

(X_X2.X1.condvdt)    0.0000           (X_X2.X1.congate)    0.0000               

(X_X2.X1.conmain)    0.0000           (X_X2.X1.control) 43.09E-15               

(X_X3.X1.condvdt)    0.0000           (X_X3.X1.congate)    0.0000               

(X_X3.X1.conmain)    0.0000           (X_X3.X1.control) 43.09E-15               

(X_X4.X1.condvdt)    0.0000           (X_X4.X1.congate)    0.0000               

(X_X4.X1.conmain)    0.0000           (X_X4.X1.control) 43.09E-15               

(X_X5.X1.condvdt)    0.0000           (X_X5.X1.congate)    0.0000               

(X_X5.X1.conmain)    0.0000           (X_X5.X1.control) 43.09E-15               

(X_X6.X1.condvdt)    0.0000           (X_X6.X1.congate)    0.0000               

(X_X6.X1.conmain)    0.0000           (X_X6.X1.control) 43.09E-15           




    VOLTAGE SOURCE CURRENTS
    NAME         CURRENT

    V_V_R       -5.505E-19
    V_V_S       -1.121E-04
    V_V_T        1.121E-04
    X_X1.X1.VIak   3.715E-17
    X_X1.X1.VdVdt   0.000E+00
    X_X1.X1.VIgf   0.000E+00
    X_X2.X1.VIak   3.731E-17
    X_X2.X1.VdVdt   6.776E-21
    X_X2.X1.VIgf  -4.136E-25
    X_X3.X1.VIak   5.603E-05
    X_X3.X1.VdVdt   0.000E+00
    X_X3.X1.VIgf   6.204E-25
    X_X4.X1.VIak  -4.034E-11
    X_X4.X1.VdVdt   0.000E+00
    X_X4.X1.VIgf   1.776E-15
    X_X5.X1.VIak   5.603E-05
    X_X5.X1.VdVdt   0.000E+00
    X_X5.X1.VIgf  -3.738E-15
    X_X6.X1.VIak  -4.034E-11
    X_X6.X1.VdVdt   0.000E+00
    X_X6.X1.VIgf   7.724E-25

    TOTAL POWER DISSIPATION   6.04E-02  WATTS



          JOB CONCLUDED

**** 05/18/24 14:02:07 ***** PSpice 23.1.0 (17 April 2024) **** ID# 0 ********

 ** Profile: "SCHEMATIC1-RLE"  [ C:\Users\lucho\OneDrive\Escritorio\ElectronicaPotencia-main\TP3\Simulacion\TP3_EP-PSpiceFiles\SCHEMA


 ****     JOB STATISTICS SUMMARY


******************************************************************************



  Total job time (using Solver 1)   =        4.50
